CITIFILE A.01.01
!Agilent Technologies,E8362B,SG43020172,A.06.04.21
!Agilent E8362B: A.06.04.21
!Date: Thursday, January 16, 2014 15:19:38
NAME CH1_DATA
VAR Freq MAG 201
DATA S11 RI
DATA S21 RI
DATA S12 RI
DATA S22 RI
VAR_LIST_BEGIN
7000000000
7030000000
7060000000
7090000000
7120000000
7150000000
7180000000
7210000000
7240000000
7270000000
7300000000
7330000000
7360000000
7390000000
7420000000
7450000000
7480000000
7510000000
7540000000
7570000000
7600000000
7630000000
7660000000
7690000000
7720000000
7750000000
7780000000
7810000000
7840000000
7870000000
7900000000
7930000000
7960000000
7990000000
8020000000
8050000000
8080000000
8110000000
8140000000
8170000000
8200000000
8230000000
8260000000
8290000000
8320000000
8350000000
8380000000
8410000000
8440000000
8470000000
8500000000
8530000000
8560000000
8590000000
8620000000
8650000000
8680000000
8710000000
8740000000
8770000000
8800000000
8830000000
8860000000
8890000000
8920000000
8950000000
8980000000
9010000000
9040000000
9070000000
9100000000
9130000000
9160000000
9190000000
9220000000
9250000000
9280000000
9310000000
9340000000
9370000000
9400000000
9430000000
9460000000
9490000000
9520000000
9550000000
9580000000
9610000000
9640000000
9670000000
9700000000
9730000000
9760000000
9790000000
9820000000
9850000000
9880000000
9910000000
9940000000
9970000000
10000000000
10030000000
10060000000
10090000000
10120000000
10150000000
10180000000
10210000000
10240000000
10270000000
10300000000
10330000000
10360000000
10390000000
10420000000
10450000000
10480000000
10510000000
10540000000
10570000000
10600000000
10630000000
10660000000
10690000000
10720000000
10750000000
10780000000
10810000000
10840000000
10870000000
10900000000
10930000000
10960000000
10990000000
11020000000
11050000000
11080000000
11110000000
11140000000
11170000000
11200000000
11230000000
11260000000
11290000000
11320000000
11350000000
11380000000
11410000000
11440000000
11470000000
11500000000
11530000000
11560000000
11590000000
11620000000
11650000000
11680000000
11710000000
11740000000
11770000000
11800000000
11830000000
11860000000
11890000000
11920000000
11950000000
11980000000
12010000000
12040000000
12070000000
12100000000
12130000000
12160000000
12190000000
12220000000
12250000000
12280000000
12310000000
12340000000
12370000000
12400000000
12430000000
12460000000
12490000000
12520000000
12550000000
12580000000
12610000000
12640000000
12670000000
12700000000
12730000000
12760000000
12790000000
12820000000
12850000000
12880000000
12910000000
12940000000
12970000000
13000000000
VAR_LIST_END
BEGIN
-0.44307616,-0.044803318
-0.43374595,-0.043262031
-0.42275992,-0.04129393
-0.41454592,-0.040121261
-0.40502217,-0.039709128
-0.39674011,-0.038802411
-0.38876879,-0.038600266
-0.37907147,-0.038203504
-0.37328508,-0.037429541
-0.36601046,-0.036372878
-0.35952646,-0.035851762
-0.35393772,-0.034673732
-0.34753013,-0.033997558
-0.34246156,-0.033410985
-0.33647147,-0.032603115
-0.33175004,-0.032240227
-0.32564148,-0.03213875
-0.32022977,-0.031851724
-0.31634277,-0.031697057
-0.30951858,-0.031610187
-0.30519065,-0.030948196
-0.30061901,-0.030172842
-0.29567492,-0.030169975
-0.29298753,-0.029171951
-0.28861326,-0.028640267
-0.28562602,-0.02872151
-0.28203341,-0.028448271
-0.27839479,-0.028196098
-0.27584499,-0.028222926
-0.27150357,-0.02829322
-0.26868644,-0.02796022
-0.26492038,-0.028051473
-0.2609016,-0.028257614
-0.25820634,-0.027398992
-0.25411561,-0.027157122
-0.25146419,-0.026983928
-0.24878298,-0.026328364
-0.24545573,-0.02616529
-0.24384332,-0.025850771
-0.24059528,-0.025463609
-0.23879261,-0.025288286
-0.23726146,-0.024933591
-0.23407927,-0.025262445
-0.23290941,-0.025200011
-0.23019561,-0.025153795
-0.22780386,-0.025644705
-0.22615074,-0.025532139
-0.22307087,-0.025804125
-0.22144319,-0.025980417
-0.21867312,-0.025962999
-0.21631204,-0.026247624
-0.21488379,-0.025694948
-0.21164528,-0.025599996
-0.21050613,-0.02549121
-0.20866744,-0.02469573
-0.2062204,-0.024696887
-0.20600428,-0.024359956
-0.2036449,-0.024132518
-0.20230311,-0.024502406
-0.20157014,-0.024260145
-0.19950773,-0.024732843
-0.19871399,-0.025091361
-0.19672011,-0.025172058
-0.19528602,-0.025670048
-0.19464026,-0.025613394
-0.19196035,-0.02586616
-0.19134092,-0.0260888
-0.18948346,-0.025791083
-0.18703263,-0.025976921
-0.18659206,-0.025530877
-0.18447708,-0.025373593
-0.18296318,-0.025632452
-0.18203251,-0.024716608
-0.180443,-0.024705479
-0.18032439,-0.025014486
-0.17869259,-0.024730949
-0.17772861,-0.025066515
-0.17742209,-0.025181865
-0.17555815,-0.025345933
-0.17516737,-0.025516249
-0.17436507,-0.025569739
-0.17256501,-0.026465902
-0.17217115,-0.026420446
-0.17052609,-0.026480064
-0.16954271,-0.027144704
-0.16874425,-0.026898041
-0.1670364,-0.026914019
-0.1666372,-0.027272796
-0.16536176,-0.026918145
-0.16410439,-0.026882736
-0.16425765,-0.026653204
-0.16259556,-0.0267538
-0.16170184,-0.026926896
-0.16114977,-0.026332555
-0.16000092,-0.026558539
-0.1598679,-0.026504708
-0.15901403,-0.026325049
-0.15867844,-0.02692426
-0.15859626,-0.026996817
-0.15711851,-0.027258679
-0.15705396,-0.027553644
-0.15653795,-0.027577978
-0.15522727,-0.028128104
-0.15494454,-0.027966673
-0.15376687,-0.027973453
-0.15305263,-0.02843813
-0.15244558,-0.028024802
-0.1510466,-0.027964856
-0.15067708,-0.028046969
-0.1497703,-0.027864873
-0.14880626,-0.02791932
-0.14894949,-0.027678562
-0.14781676,-0.02775475
-0.1476884,-0.027954565
-0.14771809,-0.027414799
-0.14674143,-0.027808879
-0.14698817,-0.028069312
-0.1465371,-0.027884813
-0.14603065,-0.028169954
-0.14626913,-0.028148433
-0.14521839,-0.028507842
-0.14486578,-0.028956767
-0.14433777,-0.028852347
-0.14329043,-0.029266274
-0.14320792,-0.029565504
-0.14192019,-0.029485421
-0.14102723,-0.029684292
-0.1410989,-0.02960695
-0.13988411,-0.029609794
-0.13993597,-0.029606633
-0.1398043,-0.029526381
-0.13918807,-0.03000468
-0.13936564,-0.029854111
-0.13873646,-0.029631278
-0.13866109,-0.030001609
-0.13887639,-0.029750094
-0.13798924,-0.029774973
-0.13841905,-0.030051572
-0.13814855,-0.029970348
-0.13728464,-0.030122576
-0.13769999,-0.029978538
-0.13724639,-0.030281242
-0.13693723,-0.030779809
-0.13682775,-0.030723391
-0.13618064,-0.031202594
-0.13624698,-0.03155119
-0.13563934,-0.031256303
-0.13544439,-0.031387284
-0.13593835,-0.031536542
-0.13492617,-0.031742487
-0.13463849,-0.031589963
-0.13486603,-0.031080991
-0.13424255,-0.031538799
-0.13433117,-0.031519864
-0.13388576,-0.031168092
-0.13380301,-0.031500366
-0.13420819,-0.031526808
-0.13382916,-0.031592317
-0.13417822,-0.031672224
-0.13433157,-0.031663001
-0.13403569,-0.032014806
-0.13463938,-0.031788807
-0.13431638,-0.031885259
-0.134082,-0.032226909
-0.13415752,-0.031845227
-0.13364477,-0.031725068
-0.13375072,-0.031627901
-0.13356265,-0.031581551
-0.13319013,-0.031887472
-0.1333219,-0.031303804
-0.13287413,-0.030992392
-0.13329168,-0.030844154
-0.13408981,-0.030223424
-0.13403523,-0.030133169
-0.13434814,-0.02996921
-0.13456978,-0.029770231
-0.13490763,-0.029487314
-0.13559914,-0.028764211
-0.13582446,-0.02937033
-0.13667975,-0.029590551
-0.13696256,-0.02881697
-0.13699324,-0.029257886
-0.13839397,-0.029222658
-0.13863714,-0.028940735
-0.13865991,-0.029763414
-0.13948813,-0.029454229
-0.13892046,-0.02941902
-0.13946271,-0.028482622
-0.14069635,-0.027797617
-0.14132965,-0.027291214
-0.14161614,-0.026497724
-0.1432444,-0.022533797
-0.15922154,-0.030265942
-0.14354026,-0.022653939
-0.14316294,-0.020464243
-0.14694688,-0.017892361
-0.14940627,-0.014783139
-0.151099,-0.011785809
-0.15758239,-0.0035377385
-0.16601254,0.0037269003
-0.17486262,0.014642465
END
BEGIN
0.21634614,-0.35087994
0.21670143,-0.35556644
0.21707402,-0.3600347
0.2169209,-0.36599806
0.21646118,-0.36898303
0.21586989,-0.37348884
0.21634506,-0.37832293
0.21589066,-0.37909991
0.21499632,-0.38411248
0.21475801,-0.38553455
0.21363737,-0.3876332
0.21234326,-0.39081496
0.21128681,-0.39307988
0.20970041,-0.39598754
0.20805058,-0.39787349
0.20662466,-0.40181443
0.20530123,-0.40264499
0.20334093,-0.40544382
0.20229547,-0.40934521
0.20095663,-0.40886441
0.19893907,-0.41225526
0.19772407,-0.41427961
0.1963197,-0.41535109
0.19420099,-0.41767675
0.19260478,-0.41875467
0.19094957,-0.42104071
0.18903023,-0.42155594
0.18679385,-0.42346802
0.18496796,-0.42591828
0.18315221,-0.42570794
0.18057619,-0.42856026
0.17899664,-0.42932072
0.17695551,-0.43046677
0.17460647,-0.43290466
0.1728411,-0.43355846
0.17090891,-0.43571472
0.16882767,-0.43648785
0.16674742,-0.43775907
0.16460016,-0.4403457
0.16285837,-0.43969247
0.16034296,-0.44178304
0.15829511,-0.44261017
0.1563201,-0.44286469
0.15364441,-0.44534442
0.15190044,-0.44488993
0.14939401,-0.44626027
0.14712955,-0.44772908
0.14521249,-0.44792497
0.14275964,-0.44987774
0.1408096,-0.45003977
0.13866481,-0.45136756
0.13636449,-0.45253134
0.13429336,-0.4523035
0.13185845,-0.45505041
0.13005874,-0.4544473
0.12752356,-0.45468518
0.12463757,-0.45772192
0.12322539,-0.4565613
0.12066194,-0.45746493
0.11806812,-0.4588221
0.11631757,-0.45914191
0.11401064,-0.46006715
0.11157281,-0.45980728
0.10927448,-0.46171376
0.107416,-0.46234611
0.10522629,-0.46103805
0.10183243,-0.46413705
0.10052842,-0.46351731
0.098492637,-0.4627969
0.095067546,-0.46516031
0.093485691,-0.46503121
0.091647342,-0.4650853
0.088403329,-0.46557313
0.086151265,-0.46655637
0.0842539,-0.46780425
0.082325652,-0.46596301
0.079006732,-0.46768948
0.077201746,-0.46903291
0.07590922,-0.46707436
0.072361067,-0.46855912
0.07023856,-0.46944329
0.068983741,-0.46865407
0.065840602,-0.46952084
0.063614242,-0.46954113
0.061776433,-0.47041303
0.059684023,-0.46990088
0.057157282,-0.46980497
0.05461869,-0.47174633
0.053220633,-0.4705562
0.050616648,-0.47040063
0.047575273,-0.47222829
0.046306591,-0.47108942
0.043753348,-0.47118655
0.041050326,-0.47161472
0.039255951,-0.47161773
0.036811125,-0.47200808
0.034535315,-0.47157264
0.032009326,-0.47247237
0.03012258,-0.47275913
0.028202252,-0.47181767
0.025242155,-0.47331202
0.023640031,-0.47298044
0.021778621,-0.47224721
0.018699707,-0.47338334
0.016950596,-0.47284967
0.014692019,-0.47297895
0.012006549,-0.47325951
0.0098720472,-0.47291696
0.0075474866,-0.47342122
0.005319031,-0.4728556
0.0027517711,-0.47314942
0.00039148639,-0.47408235
-0.0012507815,-0.47269687
-0.0042781699,-0.47367451
-0.0064543928,-0.47398412
-0.0078413542,-0.47265011
-0.011009595,-0.47365022
-0.013112802,-0.47352239
-0.014757624,-0.47284481
-0.017615302,-0.47278634
-0.019716725,-0.47242585
-0.02208006,-0.47307694
-0.024086133,-0.47196084
-0.026631635,-0.4717195
-0.029363463,-0.47316518
-0.03054299,-0.47139576
-0.033457287,-0.47105563
-0.036653791,-0.47264159
-0.037408188,-0.47121665
-0.039880972,-0.47093329
-0.042761531,-0.47107512
-0.044535551,-0.471044
-0.046488348,-0.47089589
-0.048581824,-0.46939322
-0.051410869,-0.47011575
-0.0534156,-0.47038668
-0.054711893,-0.46814072
-0.058386505,-0.46911299
-0.060167301,-0.46894026
-0.061461892,-0.46755117
-0.064907022,-0.46770957
-0.066965692,-0.46745843
-0.068650074,-0.46720096
-0.071117014,-0.46642521
-0.073494345,-0.46591505
-0.075998224,-0.46714118
-0.076993972,-0.46543792
-0.079458237,-0.46469295
-0.082699798,-0.46582684
-0.083440959,-0.46413463
-0.085761346,-0.46351078
-0.088842869,-0.46369013
-0.090024449,-0.46255878
-0.092499286,-0.46228656
-0.094721138,-0.4613407
-0.097096756,-0.46118984
-0.099192999,-0.46101689
-0.10090823,-0.45967907
-0.10389308,-0.45991638
-0.10590778,-0.45955235
-0.10724784,-0.45816839
-0.11049063,-0.45856556
-0.11206216,-0.45766258
-0.1139014,-0.4568015
-0.11703935,-0.45671779
-0.11849798,-0.45585403
-0.12056137,-0.45524105
-0.12303592,-0.45450616
-0.12505434,-0.45387015
-0.12750962,-0.45392379
-0.12880565,-0.45230266
-0.13162611,-0.45206335
-0.13417447,-0.452472
-0.13492504,-0.45060056
-0.13785775,-0.45014343
-0.14055765,-0.45044667
-0.14138632,-0.44894856
-0.14404899,-0.44792801
-0.14645946,-0.44717768
-0.14836654,-0.44685638
-0.15044482,-0.44572133
-0.1525268,-0.4440234
-0.1556471,-0.44443214
-0.15698321,-0.443445
-0.15862635,-0.44134539
-0.16280337,-0.44195324
-0.16379198,-0.44142035
-0.16461787,-0.43949318
-0.16853203,-0.43886039
-0.17056975,-0.43849432
-0.1717768,-0.4380101
-0.17296103,-0.43552682
-0.17934519,-0.43336067
-0.17887993,-0.43549177
-0.17858593,-0.43284276
-0.18104775,-0.43077114
-0.18495451,-0.43139386
-0.18446876,-0.42903641
-0.1856671,-0.42633909
-0.18871963,-0.42426193
-0.18854462,-0.42130816
END
BEGIN
0.21595769,-0.3504816
0.21625382,-0.35517457
0.21661662,-0.35948494
0.21642768,-0.36544174
0.21596061,-0.36843017
0.2154725,-0.37296432
0.21578987,-0.37779915
0.2154606,-0.37837577
0.2145575,-0.38365322
0.21430522,-0.38493025
0.21323352,-0.38721579
0.21188483,-0.39033931
0.21090321,-0.39263612
0.20927723,-0.39548692
0.20763081,-0.39736983
0.20618397,-0.40127113
0.20474377,-0.40216172
0.20292905,-0.40490016
0.20174448,-0.40886578
0.20050016,-0.40832654
0.19845089,-0.41175637
0.19714108,-0.41369292
0.19590966,-0.41490456
0.19377205,-0.41735277
0.1921023,-0.41823053
0.19045509,-0.42069289
0.18843827,-0.42110893
0.18628845,-0.42310473
0.18443602,-0.42550999
0.18256776,-0.42526162
0.18008193,-0.42806759
0.1784229,-0.4288964
0.17653143,-0.42996049
0.17409588,-0.43258834
0.17231737,-0.43306503
0.17033228,-0.43533909
0.16824639,-0.4360615
0.16621785,-0.43736845
0.16402157,-0.43992752
0.1622483,-0.43927342
0.15981619,-0.44118786
0.15768963,-0.44224349
0.15576021,-0.44233164
0.1531408,-0.44483343
0.15126058,-0.44439954
0.14899111,-0.44582638
0.14654668,-0.4473772
0.14477268,-0.44741592
0.14225104,-0.44958797
0.1402709,-0.44947264
0.13815477,-0.45089635
0.1357909,-0.45199335
0.13368015,-0.45173115
0.13122083,-0.45442292
0.12948082,-0.45390034
0.12702486,-0.45420486
0.12408647,-0.45716816
0.12271468,-0.45611781
0.12018041,-0.45703176
0.11746465,-0.45842391
0.11587561,-0.45871437
0.11337375,-0.45974201
0.11103511,-0.45927754
0.10869381,-0.46132955
0.10682227,-0.46185109
0.10480388,-0.46051061
0.10138761,-0.46358746
0.10018757,-0.46302381
0.098102711,-0.46234733
0.094630666,-0.46467489
0.09306553,-0.46455756
0.091118865,-0.46461508
0.08794535,-0.4651745
0.085670672,-0.46610379
0.083845653,-0.46741781
0.081712507,-0.46553805
0.078516014,-0.46734998
0.076738849,-0.46853393
0.075364336,-0.46658877
0.071994513,-0.46796873
0.069785982,-0.46896607
0.06860289,-0.46818316
0.065501489,-0.46896318
0.063234322,-0.469172
0.061374526,-0.47004068
0.059194028,-0.4694674
0.056666769,-0.46925271
0.05411249,-0.4712292
0.052631859,-0.47000501
0.050073795,-0.4699437
0.047039893,-0.47172642
0.045920029,-0.47047874
0.043401603,-0.47070962
0.040623616,-0.47113499
0.038795844,-0.47109354
0.036441267,-0.47154805
0.034134891,-0.47103289
0.031596653,-0.47198197
0.029546523,-0.47235087
0.027641371,-0.47126573
0.024674913,-0.47277677
0.022913024,-0.47247654
0.021281181,-0.47179767
0.018160926,-0.47284245
0.016424622,-0.47228622
0.014305967,-0.47249803
0.011484927,-0.47272786
0.0095330402,-0.47238615
0.0071234,-0.47295296
0.0049215015,-0.47233781
0.0022789137,-0.47262153
-0.0001351556,-0.47351861
-0.0016852784,-0.47206694
-0.0046833726,-0.47312564
-0.00696442,-0.47344989
-0.0084054219,-0.47205955
-0.011407878,-0.47301739
-0.013443208,-0.47301692
-0.015144487,-0.47232196
-0.017947203,-0.47236514
-0.020163156,-0.47189566
-0.022348687,-0.47251755
-0.024549542,-0.47149345
-0.027076459,-0.47115666
-0.029798789,-0.47255418
-0.031020526,-0.47071812
-0.033743639,-0.47057256
-0.037120156,-0.47209021
-0.037813056,-0.47061095
-0.040287133,-0.47038525
-0.043097612,-0.47054097
-0.044985276,-0.47059423
-0.046860516,-0.47037765
-0.049026422,-0.46884635
-0.051883191,-0.46957538
-0.053827498,-0.46992493
-0.055231217,-0.46760184
-0.058774106,-0.4685075
-0.060668476,-0.46843061
-0.061940651,-0.46701232
-0.065279089,-0.46726072
-0.067316964,-0.46691072
-0.068965085,-0.46667016
-0.071534358,-0.4659875
-0.073848344,-0.46541119
-0.076440841,-0.46661696
-0.077576771,-0.46476373
-0.079979151,-0.46402875
-0.083208144,-0.46525618
-0.083876722,-0.46345079
-0.086144008,-0.46272841
-0.089298986,-0.46297163
-0.090463072,-0.46185666
-0.092866912,-0.46164003
-0.095171601,-0.46074545
-0.097442254,-0.46069229
-0.099733248,-0.46050638
-0.1014841,-0.45911974
-0.10435149,-0.45931697
-0.10643782,-0.45897737
-0.1077432,-0.45747373
-0.11106804,-0.45787111
-0.11255086,-0.45688638
-0.11429077,-0.45606765
-0.11744709,-0.45603651
-0.11900222,-0.45511705
-0.12099794,-0.45458332
-0.12349634,-0.45379773
-0.12553531,-0.45314988
-0.12792228,-0.45318246
-0.12942518,-0.4515534
-0.13206722,-0.45130441
-0.13470273,-0.4517338
-0.13546336,-0.44967222
-0.1382703,-0.44935694
-0.14110641,-0.44958529
-0.14176042,-0.44806626
-0.14441094,-0.44708997
-0.1469152,-0.44629997
-0.14880687,-0.44614926
-0.15094151,-0.44503406
-0.15300101,-0.44323313
-0.1561476,-0.44366029
-0.15752764,-0.44257402
-0.1590665,-0.44033951
-0.16329996,-0.44112399
-0.16426323,-0.44051543
-0.1649465,-0.43860075
-0.16883567,-0.43803221
-0.17089051,-0.43767509
-0.17208958,-0.43721294
-0.17332461,-0.43490639
-0.17935453,-0.43249446
-0.17924891,-0.43475318
-0.17898346,-0.43201861
-0.18139732,-0.42995682
-0.18529388,-0.43051174
-0.18464863,-0.42796278
-0.1858716,-0.42543584
-0.18894675,-0.42333183
-0.18859988,-0.42031208
END
BEGIN
-0.45763677,-0.080982827
-0.44837964,-0.080081873
-0.43741518,-0.078568496
-0.4295868,-0.07798145
-0.41980785,-0.077863961
-0.41237488,-0.076731183
-0.40484038,-0.076996692
-0.39596486,-0.07634417
-0.39084172,-0.075880349
-0.38360423,-0.07537391
-0.37737739,-0.075173549
-0.37190369,-0.074712023
-0.36553425,-0.074289158
-0.36062545,-0.074185871
-0.3546569,-0.07355845
-0.35034162,-0.073252127
-0.3444511,-0.073199868
-0.33954459,-0.072562598
-0.33633095,-0.072388187
-0.33014709,-0.07201878
-0.32648808,-0.071598031
-0.32188779,-0.071270391
-0.31728283,-0.071236469
-0.31476107,-0.071089618
-0.31008697,-0.070825629
-0.30710328,-0.071105517
-0.30355915,-0.0712246
-0.30017892,-0.070805743
-0.29789719,-0.070903465
-0.2939167,-0.070962273
-0.2915566,-0.070670553
-0.28808522,-0.070323624
-0.28469175,-0.070224799
-0.2826173,-0.069817863
-0.27871561,-0.069451272
-0.27651322,-0.069673516
-0.27388105,-0.069580279
-0.27066234,-0.069431633
-0.26937127,-0.06970726
-0.26625019,-0.069796115
-0.26430741,-0.070169471
-0.26248291,-0.070344023
-0.2597028,-0.070326895
-0.2588883,-0.070346944
-0.25642353,-0.070177414
-0.25456041,-0.070288606
-0.25320211,-0.069987155
-0.25064898,-0.069639996
-0.24961469,-0.069753073
-0.24710695,-0.069371901
-0.24517544,-0.069284968
-0.24407409,-0.069387771
-0.24101759,-0.069241434
-0.24009764,-0.069576226
-0.23835084,-0.069534034
-0.23587875,-0.069710009
-0.23572364,-0.06991785
-0.23344745,-0.069902219
-0.23215806,-0.07049562
-0.23144989,-0.070497788
-0.22972587,-0.070399463
-0.22944228,-0.070902258
-0.22755708,-0.070656754
-0.22633103,-0.070852295
-0.22614449,-0.070805207
-0.22370856,-0.070543043
-0.2235986,-0.070702046
-0.22199857,-0.070390597
-0.21987221,-0.070610702
-0.21970282,-0.070685267
-0.21779364,-0.070314907
-0.21664059,-0.071051486
-0.2159882,-0.071027897
-0.21432285,-0.071123689
-0.21453883,-0.071846917
-0.21307366,-0.071829133
-0.21224681,-0.072092049
-0.21221584,-0.072291233
-0.21065053,-0.072327994
-0.2104881,-0.072511077
