CITIFILE A.01.01
!Agilent Technologies,E8362B,SG43020172,A.06.04.21
!Agilent E8362B: A.06.04.21
!Date: Friday, February 21, 2014 13:43:34
NAME CH1_DATA
VAR Freq MAG 801
DATA S11 RI
DATA S21 RI
DATA S12 RI
DATA S22 RI
VAR_LIST_BEGIN
7000000000
7007500000
7015000000
7022500000
7030000000
7037500000
7045000000
7052500000
7060000000
7067500000
7075000000
7082500000
7090000000
7097500000
7105000000
7112500000
7120000000
7127500000
7135000000
7142500000
7150000000
7157500000
7165000000
7172500000
7180000000
7187500000
7195000000
7202500000
7210000000
7217500000
7225000000
7232500000
7240000000
7247500000
7255000000
7262500000
7270000000
7277500000
7285000000
7292500000
7300000000
7307500000
7315000000
7322500000
7330000000
7337500000
7345000000
7352500000
7360000000
7367500000
7375000000
7382500000
7390000000
7397500000
7405000000
7412500000
7420000000
7427500000
7435000000
7442500000
7450000000
7457500000
7465000000
7472500000
7480000000
7487500000
7495000000
7502500000
7510000000
7517500000
7525000000
7532500000
7540000000
7547500000
7555000000
7562500000
7570000000
7577500000
7585000000
7592500000
7600000000
7607500000
7615000000
7622500000
7630000000
7637500000
7645000000
7652500000
7660000000
7667500000
7675000000
7682500000
7690000000
7697500000
7705000000
7712500000
7720000000
7727500000
7735000000
7742500000
7750000000
7757500000
7765000000
7772500000
7780000000
7787500000
7795000000
7802500000
7810000000
7817500000
7825000000
7832500000
7840000000
7847500000
7855000000
7862500000
7870000000
7877500000
7885000000
7892500000
7900000000
7907500000
7915000000
7922500000
7930000000
7937500000
7945000000
7952500000
7960000000
7967500000
7975000000
7982500000
7990000000
7997500000
8005000000
8012500000
8020000000
8027500000
8035000000
8042500000
8050000000
8057500000
8065000000
8072500000
8080000000
8087500000
8095000000
8102500000
8110000000
8117500000
8125000000
8132500000
8140000000
8147500000
8155000000
8162500000
8170000000
8177500000
8185000000
8192500000
8200000000
8207500000
8215000000
8222500000
8230000000
8237500000
8245000000
8252500000
8260000000
8267500000
8275000000
8282500000
8290000000
8297500000
8305000000
8312500000
8320000000
8327500000
8335000000
8342500000
8350000000
8357500000
8365000000
8372500000
8380000000
8387500000
8395000000
8402500000
8410000000
8417500000
8425000000
8432500000
8440000000
8447500000
8455000000
8462500000
8470000000
8477500000
8485000000
8492500000
8500000000
8507500000
8515000000
8522500000
8530000000
8537500000
8545000000
8552500000
8560000000
8567500000
8575000000
8582500000
8590000000
8597500000
8605000000
8612500000
8620000000
8627500000
8635000000
8642500000
8650000000
8657500000
8665000000
8672500000
8680000000
8687500000
8695000000
8702500000
8710000000
8717500000
8725000000
8732500000
8740000000
8747500000
8755000000
8762500000
8770000000
8777500000
8785000000
8792500000
8800000000
8807500000
8815000000
8822500000
8830000000
8837500000
8845000000
8852500000
8860000000
8867500000
8875000000
8882500000
8890000000
8897500000
8905000000
8912500000
8920000000
8927500000
8935000000
8942500000
8950000000
8957500000
8965000000
8972500000
8980000000
8987500000
8995000000
9002500000
9010000000
9017500000
9025000000
9032500000
9040000000
9047500000
9055000000
9062500000
9070000000
9077500000
9085000000
9092500000
9100000000
9107500000
9115000000
9122500000
9130000000
9137500000
9145000000
9152500000
9160000000
9167500000
9175000000
9182500000
9190000000
9197500000
9205000000
9212500000
9220000000
9227500000
9235000000
9242500000
9250000000
9257500000
9265000000
9272500000
9280000000
9287500000
9295000000
9302500000
9310000000
9317500000
9325000000
9332500000
9340000000
9347500000
9355000000
9362500000
9370000000
9377500000
9385000000
9392500000
9400000000
9407500000
9415000000
9422500000
9430000000
9437500000
9445000000
9452500000
9460000000
9467500000
9475000000
9482500000
9490000000
9497500000
9505000000
9512500000
9520000000
9527500000
9535000000
9542500000
9550000000
9557500000
9565000000
9572500000
9580000000
9587500000
9595000000
9602500000
9610000000
9617500000
9625000000
9632500000
9640000000
9647500000
9655000000
9662500000
9670000000
9677500000
9685000000
9692500000
9700000000
9707500000
9715000000
9722500000
9730000000
9737500000
9745000000
9752500000
9760000000
9767500000
9775000000
9782500000
9790000000
9797500000
9805000000
9812500000
9820000000
9827500000
9835000000
9842500000
9850000000
9857500000
9865000000
9872500000
9880000000
9887500000
9895000000
9902500000
9910000000
9917500000
9925000000
9932500000
9940000000
9947500000
9955000000
9962500000
9970000000
9977500000
9985000000
9992500000
10000000000
10007500000
10015000000
10022500000
10030000000
10037500000
10045000000
10052500000
10060000000
10067500000
10075000000
10082500000
10090000000
10097500000
10105000000
10112500000
10120000000
10127500000
10135000000
10142500000
10150000000
10157500000
10165000000
10172500000
10180000000
10187500000
10195000000
10202500000
10210000000
10217500000
10225000000
10232500000
10240000000
10247500000
10255000000
10262500000
10270000000
10277500000
10285000000
10292500000
10300000000
10307500000
10315000000
10322500000
10330000000
10337500000
10345000000
10352500000
10360000000
10367500000
10375000000
10382500000
10390000000
10397500000
10405000000
10412500000
10420000000
10427500000
10435000000
10442500000
10450000000
10457500000
10465000000
10472500000
10480000000
10487500000
10495000000
10502500000
10510000000
10517500000
10525000000
10532500000
10540000000
10547500000
10555000000
10562500000
10570000000
10577500000
10585000000
10592500000
10600000000
10607500000
10615000000
10622500000
10630000000
10637500000
10645000000
10652500000
10660000000
10667500000
10675000000
10682500000
10690000000
10697500000
10705000000
10712500000
10720000000
10727500000
10735000000
10742500000
10750000000
10757500000
10765000000
10772500000
10780000000
10787500000
10795000000
10802500000
10810000000
10817500000
10825000000
10832500000
10840000000
10847500000
10855000000
10862500000
10870000000
10877500000
10885000000
10892500000
10900000000
10907500000
10915000000
10922500000
10930000000
10937500000
10945000000
10952500000
10960000000
10967500000
10975000000
10982500000
10990000000
10997500000
11005000000
11012500000
11020000000
11027500000
11035000000
11042500000
11050000000
11057500000
11065000000
11072500000
11080000000
11087500000
11095000000
11102500000
11110000000
11117500000
11125000000
11132500000
11140000000
11147500000
11155000000
11162500000
11170000000
11177500000
11185000000
11192500000
11200000000
11207500000
11215000000
11222500000
11230000000
11237500000
11245000000
11252500000
11260000000
11267500000
11275000000
11282500000
11290000000
11297500000
11305000000
11312500000
11320000000
11327500000
11335000000
11342500000
11350000000
11357500000
11365000000
11372500000
11380000000
11387500000
11395000000
11402500000
11410000000
11417500000
11425000000
11432500000
11440000000
11447500000
11455000000
11462500000
11470000000
11477500000
11485000000
11492500000
11500000000
11507500000
11515000000
11522500000
11530000000
11537500000
11545000000
11552500000
11560000000
11567500000
11575000000
11582500000
11590000000
11597500000
11605000000
11612500000
11620000000
11627500000
11635000000
11642500000
11650000000
11657500000
11665000000
11672500000
11680000000
11687500000
11695000000
11702500000
11710000000
11717500000
11725000000
11732500000
11740000000
11747500000
11755000000
11762500000
11770000000
11777500000
11785000000
11792500000
11800000000
11807500000
11815000000
11822500000
11830000000
11837500000
11845000000
11852500000
11860000000
11867500000
11875000000
11882500000
11890000000
11897500000
11905000000
11912500000
11920000000
11927500000
11935000000
11942500000
11950000000
11957500000
11965000000
11972500000
11980000000
11987500000
11995000000
12002500000
12010000000
12017500000
12025000000
12032500000
12040000000
12047500000
12055000000
12062500000
12070000000
12077500000
12085000000
12092500000
12100000000
12107500000
12115000000
12122500000
12130000000
12137500000
12145000000
12152500000
12160000000
12167500000
12175000000
12182500000
12190000000
12197500000
12205000000
12212500000
12220000000
12227500000
12235000000
12242500000
12250000000
12257500000
12265000000
12272500000
12280000000
12287500000
12295000000
12302500000
12310000000
12317500000
12325000000
12332500000
12340000000
12347500000
12355000000
12362500000
12370000000
12377500000
12385000000
12392500000
12400000000
12407500000
12415000000
12422500000
12430000000
12437500000
12445000000
12452500000
12460000000
12467500000
12475000000
12482500000
12490000000
12497500000
12505000000
12512500000
12520000000
12527500000
12535000000
12542500000
12550000000
12557500000
12565000000
12572500000
12580000000
12587500000
12595000000
12602500000
12610000000
12617500000
12625000000
12632500000
12640000000
12647500000
12655000000
12662500000
12670000000
12677500000
12685000000
12692500000
12700000000
12707500000
12715000000
12722500000
12730000000
12737500000
12745000000
12752500000
12760000000
12767500000
12775000000
12782500000
12790000000
12797500000
12805000000
12812500000
12820000000
12827500000
12835000000
12842500000
12850000000
12857500000
12865000000
12872500000
12880000000
12887500000
12895000000
12902500000
12910000000
12917500000
12925000000
12932500000
12940000000
12947500000
12955000000
12962500000
12970000000
12977500000
12985000000
12992500000
13000000000
VAR_LIST_END
BEGIN
-0.25927153,-0.36581418
-0.25865954,-0.36626238
-0.25806448,-0.36668798
-0.25748539,-0.36709142
-0.25692099,-0.36747369
-0.2563709,-0.36783516
-0.25583434,-0.36817676
-0.25531054,-0.36849898
-0.25479901,-0.36880285
-0.25429907,-0.36908835
-0.2538102,-0.3693566
-0.25333175,-0.36960769
-0.25286379,-0.36984247
-0.25240514,-0.37006116
-0.25195584,-0.37026438
-0.25151503,-0.37045234
-0.25108266,-0.37062553
-0.25065807,-0.37078443
-0.2502408,-0.37092924
-0.2498308,-0.37106046
-0.24942729,-0.37117833
-0.24903034,-0.37128305
-0.24863958,-0.37137523
-0.24825457,-0.37145501
-0.24787527,-0.37152261
-0.24750097,-0.3715781
-0.24713171,-0.37162217
-0.24676698,-0.3716549
-0.24640673,-0.37167633
-0.24605058,-0.37168682
-0.24569839,-0.37168688
-0.24534994,-0.37167662
-0.24500497,-0.37165606
-0.2446634,-0.37162554
-0.24432497,-0.37158519
-0.24398947,-0.37153527
-0.24365659,-0.37147605
-0.24332628,-0.37140733
-0.24299839,-0.37132967
-0.24267267,-0.37124318
-0.24234882,-0.3711479
-0.24202694,-0.37104425
-0.24170686,-0.37093201
-0.24138837,-0.37081185
-0.24107134,-0.37068355
-0.24075569,-0.37054729
-0.24044113,-0.37040329
-0.2401277,-0.37025169
-0.23981509,-0.37009263
-0.23950329,-0.36992627
-0.23919207,-0.36975285
-0.23888147,-0.36957234
-0.23857139,-0.36938503
-0.23826171,-0.36919096
-0.23795235,-0.36899033
-0.2376432,-0.36878324
-0.23733415,-0.36856988
-0.23702502,-0.36835012
-0.23671585,-0.36812437
-0.23640637,-0.36789274
-0.23609668,-0.3676551
-0.23578678,-0.36741188
-0.23547634,-0.36716303
-0.23516549,-0.36690867
-0.2348541,-0.36664903
-0.23454215,-0.36638403
-0.23422951,-0.36611414
-0.23391624,-0.36583903
-0.23360211,-0.36555922
-0.23328707,-0.36527461
-0.2329711,-0.3649852
-0.2326542,-0.36469138
-0.23233622,-0.36439317
-0.23201713,-0.36409053
-0.23169701,-0.36378381
-0.23137562,-0.36347294
-0.23105311,-0.3631582
-0.23072925,-0.36283952
-0.23040403,-0.3625173
-0.23007751,-0.36219135
-0.22974961,-0.36186197
-0.2294202,-0.36152923
-0.22908929,-0.36119324
-0.22875695,-0.36085415
-0.22842307,-0.36051214
-0.2280876,-0.36016718
-0.22775067,-0.3598195
-0.22741207,-0.35946921
-0.22707191,-0.35911635
-0.22672999,-0.35876101
-0.22638649,-0.35840353
-0.22604124,-0.35804394
-0.22569433,-0.35768223
-0.22534588,-0.3573187
-0.22499567,-0.35695344
-0.22464378,-0.35658652
-0.22429019,-0.35621804
-0.22393495,-0.35584825
-0.22357804,-0.35547718
-0.22321945,-0.35510498
-0.2228592,-0.35473183
-0.22249733,-0.35435763
-0.22213386,-0.35398272
-0.22176881,-0.35360715
-0.22140223,-0.35323101
-0.22103409,-0.35285452
-0.22066464,-0.3524777
-0.22029364,-0.35210067
-0.21992126,-0.35172352
-0.2195475,-0.35134637
-0.2191723,-0.3509694
-0.21879584,-0.35059261
-0.21841797,-0.35021618
-0.21803892,-0.34984022
-0.21765862,-0.3494648
-0.21727717,-0.34909013
-0.21689463,-0.3487162
-0.21651098,-0.34834316
-0.2161264,-0.34797114
-0.21574087,-0.34760016
-0.2153544,-0.34723046
-0.21496703,-0.34686193
-0.21457888,-0.34649485
-0.21418992,-0.34612924
-0.21380031,-0.3457652
-0.21341008,-0.34540284
-0.2130193,-0.34504226
-0.21262799,-0.34468347
-0.21223617,-0.34432665
-0.211844,-0.34397179
-0.21145149,-0.34361911
-0.21105872,-0.34326851
-0.21066572,-0.34292033
-0.21027249,-0.34257451
-0.20987925,-0.34223104
-0.20948598,-0.34189022
-0.20909274,-0.34155208
-0.20869963,-0.34121653
-0.20830676,-0.34088385
-0.20791414,-0.34055409
-0.2075219,-0.34022722
-0.20713004,-0.3399033
-0.20673873,-0.33958259
-0.20634796,-0.33926502
-0.20595786,-0.3389506
-0.20556852,-0.33863947
-0.20518,-0.33833176
-0.20479244,-0.33802748
-0.20440586,-0.33772668
-0.20402034,-0.33742937
-0.20363602,-0.33713573
-0.2032529,-0.33684573
-0.20287111,-0.33655941
-0.20249069,-0.3362768
-0.20211175,-0.33599806
-0.20173441,-0.33572322
-0.20135871,-0.33545223
-0.20098476,-0.33518508
-0.20061268,-0.33492211
-0.20024255,-0.33466312
-0.19987442,-0.33440816
-0.19950843,-0.33415735
-0.19914459,-0.33391064
-0.19878307,-0.33366811
-0.19842391,-0.33342981
-0.19806719,-0.33319572
-0.19771314,-0.33296594
-0.19736169,-0.33274034
-0.19701298,-0.33251902
-0.19666709,-0.33230203
-0.19632418,-0.33208939
-0.19598427,-0.33188102
-0.19564746,-0.33167696
-0.19531386,-0.33147725
-0.19498351,-0.33128187
-0.19465654,-0.33109081
-0.19433299,-0.33090404
-0.19401303,-0.33072162
-0.19369663,-0.33054352
-0.19338401,-0.33036974
-0.19307514,-0.33020025
-0.19277014,-0.33003503
-0.19246912,-0.32987407
-0.19217214,-0.32971734
-0.19187926,-0.32956484
-0.19159058,-0.32941654
-0.19130619,-0.32927239
-0.19102611,-0.32913241
-0.19075046,-0.32899645
-0.19047937,-0.3288646
-0.19021283,-0.32873681
-0.18995097,-0.32861304
-0.18969376,-0.32849315
-0.18944138,-0.32837716
-0.18919383,-0.3282651
-0.18895118,-0.32815677
-0.18871351,-0.32805228
-0.18848084,-0.32795146
-0.18825328,-0.32785428
-0.18803088,-0.32776076
-0.18781371,-0.32767078
-0.18760177,-0.32758427
-0.18739519,-0.32750118
-0.18719395,-0.32742149
-0.18699813,-0.3273451
-0.18680775,-0.32727194
-0.1866229,-0.32720199
-0.1864436,-0.32713512
-0.18626988,-0.32707125
-0.18610181,-0.32701033
-0.18593942,-0.3269524
-0.18578276,-0.32689717
-0.1856318,-0.32684466
-0.18548661,-0.32679483
-0.18534724,-0.32674754
-0.1852137,-0.3267028
-0.18508597,-0.32666039
-0.18496406,-0.32662034
-0.18484807,-0.32658258
-0.18473792,-0.32654697
-0.18463372,-0.32651347
-0.18453541,-0.32648197
-0.18444306,-0.32645246
-0.18435663,-0.32642478
-0.18427616,-0.32639885
-0.1842017,-0.32637471
-0.18413322,-0.32635212
-0.18407071,-0.32633108
-0.18401422,-0.32631144
-0.1839637,-0.32629314
-0.18391924,-0.32627612
-0.18388079,-0.32626024
-0.18384829,-0.3262454
-0.18382181,-0.32623157
-0.18380134,-0.32621858
-0.18378681,-0.32620639
-0.18377827,-0.32619485
-0.18377563,-0.32618392
-0.18377897,-0.32617348
-0.18378818,-0.32616341
-0.18380326,-0.32615364
-0.18382423,-0.3261441
-0.18385103,-0.32613465
-0.18388367,-0.32612526
-0.18392202,-0.32611576
-0.18396613,-0.32610613
-0.18401594,-0.32609621
-0.18407144,-0.32608595
-0.18413252,-0.32607523
-0.18419918,-0.32606393
-0.18427145,-0.3260521
-0.18434918,-0.32603952
-0.18443236,-0.32602611
-0.18452096,-0.32601181
-0.18461493,-0.32599652
-0.18471415,-0.32598019
-0.18481866,-0.3259626
-0.18492833,-0.32594386
-0.18504314,-0.32592374
-0.18516305,-0.32590219
-0.18528794,-0.32587922
-0.18541777,-0.3258546
-0.18555254,-0.32582828
-0.18569207,-0.32580027
-0.1858364,-0.32577047
-0.18598539,-0.32573873
-0.18613902,-0.32570499
-0.18629715,-0.32566926
-0.18645979,-0.32563138
-0.18662676,-0.32559127
-0.18679811,-0.32554898
-0.18697369,-0.32550433
-0.18715344,-0.32545727
-0.18733726,-0.32540774
-0.18752508,-0.32535571
-0.18771683,-0.32530108
-0.18791242,-0.3252438
-0.18811174,-0.32518381
-0.18831475,-0.32512105
-0.18852134,-0.32505545
-0.18873145,-0.32498699
-0.18894491,-0.32491556
-0.18916176,-0.32484126
-0.18938181,-0.3247638
-0.18960501,-0.32468337
-0.18983126,-0.32459974
-0.19006045,-0.32451305
-0.19029252,-0.32442313
-0.19052736,-0.32432994
-0.19076486,-0.3242335
-0.19100499,-0.32413378
-0.19124758,-0.32403067
-0.19149257,-0.32392421
-0.19173987,-0.32381439
-0.19198941,-0.32370108
-0.19224106,-0.32358438
-0.19249474,-0.32346424
-0.19275029,-0.32334054
-0.19300774,-0.32321337
-0.1932669,-0.32308266
-0.1935277,-0.32294846
-0.19379002,-0.32281059
-0.19405384,-0.3226693
-0.19431899,-0.32252437
-0.19458543,-0.32237586
-0.19485302,-0.32222381
-0.19512168,-0.32206821
-0.19539133,-0.32190898
-0.19566186,-0.3217462
-0.19593319,-0.32157984
-0.19620521,-0.32140991
-0.19647789,-0.32123649
-0.19675107,-0.32105953
-0.19702464,-0.32087898
-0.19729862,-0.32069495
-0.1975728,-0.32050747
-0.19784716,-0.32031643
-0.19812159,-0.32012203
-0.19839603,-0.31992415
-0.19867039,-0.31972289
-0.19894454,-0.31951821
-0.19921844,-0.31931019
-0.19949201,-0.31909892
-0.19976515,-0.31888428
-0.20003778,-0.3186664
-0.20030981,-0.31844535
-0.20058119,-0.31822109
-0.20085183,-0.3179937
-0.20112169,-0.31776324
-0.20139056,-0.31752965
-0.20165855,-0.31729311
-0.20192546,-0.31705359
-0.20219128,-0.31681117
-0.20245592,-0.31656584
-0.20271933,-0.31631777
-0.2029814,-0.31606689
-0.20324214,-0.3158133
-0.2035014,-0.31555703
-0.20375919,-0.31529826
-0.20401542,-0.31503686
-0.20427004,-0.31477299
-0.20452295,-0.31450671
-0.20477417,-0.31423807
-0.20502359,-0.31396714
-0.20527118,-0.31369391
-0.2055169,-0.3134186
-0.2057607,-0.31314114
-0.2060025,-0.31286165
-0.20624229,-0.31258023
-0.20648001,-0.31229684
-0.20671563,-0.31201169
-0.2069491,-0.31172475
-0.20718038,-0.31143612
-0.20740946,-0.3111459
-0.20763627,-0.31085408
-0.20786081,-0.31056085
-0.20808305,-0.31026626
-0.20830292,-0.30997029
-0.20852046,-0.3096731
-0.20873557,-0.30937469
-0.2089483,-0.30907527
-0.20915854,-0.3087748
-0.20936638,-0.30847341
-0.20957172,-0.30817115
-0.20977458,-0.30786818
-0.20997486,-0.30756453
-0.21017256,-0.30726057
-0.21035218,-0.30695781
-0.2105494,-0.30666041
-0.21073969,-0.30635375
-0.2109277,-0.3060472
-0.21111335,-0.30574048
-0.21129654,-0.3054336
-0.21147728,-0.30512658
-0.21165559,-0.30481952
-0.21183144,-0.3045125
-0.21200487,-0.3042056
-0.21217582,-0.30389884
-0.21234442,-0.30359238
-0.21251059,-0.30328625
-0.21267436,-0.30298048
-0.21283582,-0.30267522
-0.2129949,-0.30237049
-0.21315169,-0.30206642
-0.21330616,-0.301763
-0.21345836,-0.30146033
-0.21360835,-0.30115852
-0.21375611,-0.30085763
-0.21390171,-0.3005577
-0.21404515,-0.30025879
-0.21418649,-0.29996097
-0.21432574,-0.29966435
